T4F54 5474:772 SEGGER J-Link V6.44a Log File (0001ms, 4197ms total)
T4F54 5474:772 DLL Compiled: Mar  8 2019 17:31:48 (0001ms, 4197ms total)
T4F54 5474:772 Logging started @ 2020-01-16 11:19 (0001ms, 4197ms total)
T4F54 5474:773 JLINK_SetWarnOutHandler(...) (0000ms, 4197ms total)
T4F54 5474:773 JLINK_OpenEx(...)
Firmware: J-Link V9 compiled Oct 25 2018 11:46:07
Hardware: V9.70
S/N: 59700618
Feature(s): RDI, FlashBP, FlashDL, JFlash, GDB
TELNET listener socket opened on port 19021WEBSRV 
Starting webserver (0025ms, 4222ms total)
T4F54 5474:773 WEBSRV Webserver running on local port 19080 (0026ms, 4223ms total)
T4F54 5474:773   returns O.K. (0026ms, 4223ms total)
T4F54 5474:799 JLINK_GetEmuCaps()  returns 0xB9FF7BBF (0000ms, 4223ms total)
T4F54 5474:800 JLINK_TIF_GetAvailable(...) (0000ms, 4223ms total)
T4F54 5474:800 JLINK_SetErrorOutHandler(...) (0000ms, 4223ms total)
T4F54 5474:800 JLINK_ExecCommand("ProjectFile = "C:\Users\51622\Desktop\Ð¡³µ³µ\Projecct\MDK\JLinkSettings.ini"", ...).   returns 0x00 (0002ms, 4225ms total)
T4F54 5474:802 JLINK_ExecCommand("Device = MK66FX1M0xxx18", ...). Device "MK66FX1M0XXX18" selected.  returns 0x00 (0002ms, 4227ms total)
T4F54 5474:804 JLINK_ExecCommand("DisableConnectionTimeout", ...).   returns 0x01 (0000ms, 4227ms total)
T4F54 5474:804 JLINK_GetHardwareVersion()  returns 0x17AE8 (0000ms, 4227ms total)
T4F54 5474:804 JLINK_GetDLLVersion()  returns 64401 (0000ms, 4227ms total)
T4F54 5474:804 JLINK_GetFirmwareString(...) (0000ms, 4227ms total)
T4F54 5474:804 JLINK_GetDLLVersion()  returns 64401 (0000ms, 4227ms total)
T4F54 5474:804 JLINK_GetCompileDateTime() (0000ms, 4227ms total)
T4F54 5474:804 JLINK_GetFirmwareString(...) (0000ms, 4227ms total)
T4F54 5474:804 JLINK_GetHardwareVersion()  returns 0x17AE8 (0000ms, 4227ms total)
T4F54 5474:804 JLINK_TIF_Select(JLINKARM_TIF_JTAG)  returns 0x00 (0001ms, 4228ms total)
T4F54 5474:805 JLINK_SetSpeed(5000) (0000ms, 4228ms total)
T4F54 5474:805 JLINK_GetIdData(...)InitTarget() >0x2F8 JTAG>TotalIRLen = 4, IRPrint = 0x01 >0x30 JTAG> >0x30 JTAG>JTAG chain detection found 1 devices: #0 Id: 0x4BA00477, IRLen: 04, CoreSight JTAG-DPScanning AP map to find all available APs >0x78 JTAG> >0x48 JTAG> >0x40 JTAG> >0x40 JTAG> >0x48 JTAG> >0x40 JTAG> >0x40 JTAG> >0x48 JTAG> >0x40 JTAG>AP[2]: Stopped AP scan as end of AP map has been reachedAP[0]: AHB-AP (IDR: 0x24770011)AP[1]: JTAG-AP (IDR: 0x001C0000)
Iterating through AP map to find AHB-AP to use >0x78 JTAG> >0x48 JTAG> >0x48 JTAG> >0x70 JTAG> >0x40 JTAG> >0x30 JTAG> >0x40 JTAG> >0x40 JTAG>AP[0]: Core foundAP[0]: AHB-AP ROM base: 0xE00FF000 >0x40 JTAG> >0x40 JTAG> >0x30 JTAG> >0x40 JTAG> >0x40 JTAG>CPUID register: 0x410FC241. Implementer code: 0x41 (ARM)Found Cortex-M4 r0p1, Little endian. -- Max. mem block: 0x00010D70 -- CPU_ReadMem(4 bytes @ 0xE000EDF0) -- CPU_WriteMem(4 bytes @ 0xE000EDF0) -- CPU_ReadMem(4 bytes @ 0xE0002000)
FPUnit: 6 code (BP) slots and 2 literal slots -- CPU_ReadMem(4 bytes @ 0xE000EDFC) -- CPU_WriteMem(4 bytes @ 0xE000EDFC) -- CPU_ReadMem(4 bytes @ 0xE0001000) -- CPU_WriteMem(4 bytes @ 0xE0001000) -- CPU_ReadMem(4 bytes @ 0xE000ED88) -- CPU_WriteMem(4 bytes @ 0xE000ED88) -- CPU_ReadMem(4 bytes @ 0xE000ED88) -- CPU_WriteMem(4 bytes @ 0xE000ED88)CoreSight components:ROMTbl[0] @ E00FF000 -- CPU_ReadMem(16 bytes @ 0xE00FF000) -- CPU_ReadMem(16 bytes @ 0xE000EFF0) -- CPU_ReadMem(16 bytes @ 0xE000EFE0)
ROMTbl[0][0]: E000E000, CID: B105E00D, PID: 000BB00C SCS-M7 -- CPU_ReadMem(16 bytes @ 0xE0001FF0) -- CPU_ReadMem(16 bytes @ 0xE0001FE0)ROMTbl[0][1]: E0001000, CID: B105E00D, PID: 003BB002 DWT -- CPU_ReadMem(16 bytes @ 0xE0002FF0) -- CPU_ReadMem(16 bytes @ 0xE0002FE0)ROMTbl[0][2]: E0002000, CID: B105E00D, PID: 002BB003 FPB -- CPU_ReadMem(16 bytes @ 0xE0000FF0) -- CPU_ReadMem(16 bytes @ 0xE0000FE0)ROMTbl[0][3]: E0000000, CID: B105E00D, PID: 003BB001 ITM -- CPU_ReadMem(16 bytes @ 0xE00FF010)
 -- CPU_ReadMem(16 bytes @ 0xE0040FF0) -- CPU_ReadMem(16 bytes @ 0xE0040FE0)ROMTbl[0][4]: E0040000, CID: B105900D, PID: 000BB9A1 TPIU -- CPU_ReadMem(16 bytes @ 0xE0041FF0) -- CPU_ReadMem(16 bytes @ 0xE0041FE0)ROMTbl[0][5]: E0041000, CID: B105900D, PID: 000BB925 ETM -- CPU_ReadMem(16 bytes @ 0xE0042FF0) -- CPU_ReadMem(16 bytes @ 0xE0042FE0)ROMTbl[0][6]: E0042000, CID: B105900D, PID: 003BB907 ETB -- CPU_ReadMem(16 bytes @ 0xE0043FF0) -- CPU_ReadMem(16 bytes @ 0xE0043FE0)
ROMTbl[0][7]: E0043000, CID: B105900D, PID: 001BB908 CSTF -- CPU_ReadMem(16 bytes @ 0xE00FF020) ScanLen=4 NumDevices=1 aId[0]=0x4BA00477 aIrRead[0]=0 aScanLen[0]=0 aScanRead[0]=0 (0070ms, 4298ms total)
T4F54 5474:875 JLINK_JTAG_GetDeviceID(DeviceIndex = 0)  returns 0x4BA00477 (0000ms, 4298ms total)
T4F54 5474:875 JLINK_JTAG_GetDeviceInfo(DeviceIndex = 0)  returns 0x00 (0000ms, 4298ms total)
T4F54 5474:875 JLINK_GetDLLVersion()  returns 64401 (0000ms, 4298ms total)
T4F54 5474:875 JLINK_CORE_GetFound()  returns 0xE0000FF (0000ms, 4298ms total)
T4F54 5474:875 JLINK_GetDebugInfo(0x100 = JLINKARM_ROM_TABLE_ADDR_INDEX) -- Value=0xE00FF000  returns 0x00 (0000ms, 4298ms total)
T4F54 5474:875 JLINK_GetDebugInfo(0x100 = JLINKARM_ROM_TABLE_ADDR_INDEX) -- Value=0xE00FF000  returns 0x00 (0000ms, 4298ms total)
T4F54 5474:875 JLINK_GetDebugInfo(0x101 = JLINKARM_DEBUG_INFO_ETM_ADDR_INDEX) -- Value=0xE0041000  returns 0x00 (0000ms, 4298ms total)
T4F54 5474:875 JLINK_ReadMemEx(0xE0041FD0, 0x0020 Bytes, ..., Flags = 0x02000004) -- CPU_ReadMem(32 bytes @ 0xE0041FD0) - Data: 04 00 00 00 00 00 00 00 00 00 00 00 00 00 00 00 ...  returns 0x20 (0000ms, 4298ms total)
T4F54 5474:875 JLINK_GetDebugInfo(0x102 = JLINKARM_DEBUG_INFO_MTB_ADDR_INDEX) -- Value=0x00000000  returns 0x00 (0000ms, 4298ms total)
T4F54 5474:875 JLINK_GetDebugInfo(0x103 = JLINKARM_DEBUG_INFO_TPIU_ADDR_INDEX) -- Value=0xE0040000  returns 0x00 (0001ms, 4299ms total)
T4F54 5474:876 JLINK_GetDebugInfo(0x104 = JLINKARM_DEBUG_INFO_ITM_ADDR_INDEX) -- Value=0xE0000000  returns 0x00 (0000ms, 4299ms total)
T4F54 5474:876 JLINK_GetDebugInfo(0x105 = JLINKARM_DEBUG_INFO_DWT_ADDR_INDEX) -- Value=0xE0001000  returns 0x00 (0000ms, 4299ms total)
T4F54 5474:876 JLINK_GetDebugInfo(0x106 = JLINKARM_DEBUG_INFO_FPB_ADDR_INDEX) -- Value=0xE0002000  returns 0x00 (0000ms, 4299ms total)
T4F54 5474:876 JLINK_GetDebugInfo(0x107 = JLINKARM_DEBUG_INFO_NVIC_ADDR_INDEX) -- Value=0xE000E000  returns 0x00 (0000ms, 4299ms total)
T4F54 5474:876 JLINK_GetDebugInfo(0x10C = JLINKARM_DEBUG_INFO_DBG_ADDR_INDEX) -- Value=0xE000EDF0  returns 0x00 (0000ms, 4299ms total)
T4F54 5474:876 JLINK_GetDebugInfo(0x01 = Unknown) -- Value=0x00000001  returns 0x00 (0000ms, 4299ms total)
T4F54 5474:876 JLINK_ReadMemU32(0xE000ED00, 0x0001 Items, ...) -- CPU_ReadMem(4 bytes @ 0xE000ED00) - Data: 41 C2 0F 41  returns 1 (0000ms, 4299ms total)
T4F54 5474:876 JLINK_GetDebugInfo(0x10F = JLINKARM_DEBUG_INFO_HAS_CORTEX_M_SECURITY_EXT_INDEX) -- Value=0x00000000  returns 0x00 (0000ms, 4299ms total)
T4F54 5474:876 JLINK_SetResetType(JLINKARM_CM3_RESET_TYPE_NORMAL)  returns JLINKARM_CM3_RESET_TYPE_NORMAL (0000ms, 4299ms total)
T4F54 5474:876 JLINK_Reset() -- CPU is running -- CPU_WriteMem(4 bytes @ 0xE000EDF0) -- CPU is running -- CPU_WriteMem(4 bytes @ 0xE000EDFC)Reset: Halt core after reset via DEMCR.VC_CORERESET.Reset: Reset device via AIRCR.SYSRESETREQ. -- CPU is running -- CPU_WriteMem(4 bytes @ 0xE000ED0C) -- CPU_ReadMem(4 bytes @ 0xE000EDF0) -- CPU_ReadMem(4 bytes @ 0xE000EDF0) -- CPU is running -- CPU_WriteMem(4 bytes @ 0xE000EDF0) -- CPU is running -- CPU_WriteMem(4 bytes @ 0xE000EDFC)
 -- CPU_ReadMem(4 bytes @ 0xE000EDF0) -- CPU_WriteMem(4 bytes @ 0xE000EDFC) -- CPU_WriteMem(4 bytes @ 0xE0001028) -- CPU_WriteMem(4 bytes @ 0xE0001038) -- CPU_WriteMem(4 bytes @ 0xE0001048) -- CPU_WriteMem(4 bytes @ 0xE0001058)AfterResetTarget() -- CPU_WriteMem(4 bytes @ 0xE0002000) -- CPU_ReadMem(4 bytes @ 0xE000EDFC) -- CPU_ReadMem(4 bytes @ 0xE0001000) (0082ms, 4381ms total)
T4F54 5474:958 JLINK_ReadReg(R15 (PC))  returns 0x0000049C (0000ms, 4381ms total)
T4F54 5474:958 JLINK_ReadReg(XPSR)  returns 0x01000000 (0000ms, 4381ms total)
T4F54 5474:958 JLINK_Halt()  returns 0x00 (0000ms, 4381ms total)
T4F54 5474:958 JLINK_ReadMemU32(0xE000EDF0, 0x0001 Items, ...) -- CPU_ReadMem(4 bytes @ 0xE000EDF0) - Data: 0B 00 03 00  returns 1 (0000ms, 4381ms total)
T4F54 5474:958 JLINK_WriteU32(0xE000EDF0, 0xA05F0003) -- CPU_WriteMem(4 bytes @ 0xE000EDF0)  returns 0 (0001ms, 4382ms total)
T4F54 5474:959 JLINK_WriteU32(0xE000EDFC, 0x01000000) -- CPU_WriteMem(4 bytes @ 0xE000EDFC)  returns 0 (0000ms, 4382ms total)
T4F54 5474:959 JLINK_GetHWStatus(...)  returns 0x00 (0000ms, 4382ms total)
T4F54 5474:959 JLINK_GetNumBPUnits(Type = 0xFFFFFF00)  returns 0x06 (0000ms, 4382ms total)
T4F54 5474:959 JLINK_GetNumBPUnits(Type = 0xF0)  returns 0x2000 (0000ms, 4382ms total)
T4F54 5474:959 JLINK_GetNumWPUnits()  returns 0x04 (0000ms, 4382ms total)
T4F54 5474:959 JLINK_GetSpeed()  returns 0x1388 (0000ms, 4382ms total)
T4F54 5474:959 JLINK_ReadMemU32(0xE000E004, 0x0001 Items, ...) -- CPU_ReadMem(4 bytes @ 0xE000E004) - Data: 03 00 00 00  returns 1 (0001ms, 4383ms total)
T4F54 5474:960 JLINK_ReadMemU32(0xE000E004, 0x0001 Items, ...) -- CPU_ReadMem(4 bytes @ 0xE000E004) - Data: 03 00 00 00  returns 1 (0000ms, 4383ms total)
T4F54 5474:960 JLINK_WriteMemEx(0xE0001000, 0x001C Bytes, ..., Flags = 0x02000004) - Data: 01 00 00 00 00 00 00 00 00 00 00 00 00 00 00 00 ... -- CPU_WriteMem(28 bytes @ 0xE0001000)  returns 0x1C (0001ms, 4384ms total)
T4F54 5474:961 JLINK_ReadReg(R15 (PC))  returns 0x0000049C (0000ms, 4384ms total)
T4F54 5474:961 JLINK_ReadReg(XPSR)  returns 0x01000000 (0000ms, 4384ms total)
T4F54 5474:965 JLINK_ReadMemEx(0xE0001004, 0x0004 Bytes, ..., Flags = 0x02000000) - Data: 00 00 00 00  returns 0x04 (0000ms, 4384ms total)
T4F54 5475:044 JLINK_SetResetType(JLINKARM_CM3_RESET_TYPE_NORMAL)  returns JLINKARM_CM3_RESET_TYPE_NORMAL (0000ms, 4384ms total)
T4F54 5475:044 JLINK_Reset() -- CPU_WriteMem(4 bytes @ 0xE000EDF0) -- CPU_WriteMem(4 bytes @ 0xE000EDFC)Reset: Halt core after reset via DEMCR.VC_CORERESET.Reset: Reset device via AIRCR.SYSRESETREQ. -- CPU_WriteMem(4 bytes @ 0xE000ED0C) -- CPU_ReadMem(4 bytes @ 0xE000EDF0) -- CPU_ReadMem(4 bytes @ 0xE000EDF0) -- CPU_WriteMem(4 bytes @ 0xE000EDF0) -- CPU_WriteMem(4 bytes @ 0xE000EDFC) -- CPU_ReadMem(4 bytes @ 0xE000EDF0) -- CPU_WriteMem(4 bytes @ 0xE000EDFC) -- CPU_WriteMem(4 bytes @ 0xE0001028)
 -- CPU_WriteMem(4 bytes @ 0xE0001038) -- CPU_WriteMem(4 bytes @ 0xE0001048) -- CPU_WriteMem(4 bytes @ 0xE0001058)AfterResetTarget() -- CPU_WriteMem(4 bytes @ 0xE0002000) -- CPU_ReadMem(4 bytes @ 0xE000EDFC) -- CPU_ReadMem(4 bytes @ 0xE0001000) (0080ms, 4464ms total)
T4F54 5475:124 JLINK_ReadReg(R15 (PC))  returns 0x0000049C (0000ms, 4464ms total)
T4F54 5475:124 JLINK_ReadReg(XPSR)  returns 0x01000000 (0000ms, 4464ms total)
T4F54 5475:125 JLINK_ReadMemEx(0x0000049C, 0x003C Bytes, ..., Flags = 0x02000000) -- CPU_ReadMem(128 bytes @ 0x00000480) -- Updating C cache (128 bytes @ 0x00000480) -- Read from C cache (60 bytes @ 0x0000049C) - Data: 72 B6 07 48 80 47 62 B6 06 48 00 47 FE E7 FE E7 ...  returns 0x3C (0001ms, 4465ms total)
T4F54 5475:126 JLINK_ReadMemEx(0x0000049C, 0x0002 Bytes, ..., Flags = 0x02000000) -- Read from C cache (2 bytes @ 0x0000049C) - Data: 72 B6  returns 0x02 (0000ms, 4465ms total)
T4F54 5475:126 JLINK_ReadMemEx(0x0000049E, 0x0002 Bytes, ..., Flags = 0x02000000) -- Read from C cache (2 bytes @ 0x0000049E) - Data: 07 48  returns 0x02 (0000ms, 4465ms total)
T4F54 5475:126 JLINK_ReadMemEx(0x0000049E, 0x0002 Bytes, ..., Flags = 0x02000000) -- Read from C cache (2 bytes @ 0x0000049E) - Data: 07 48  returns 0x02 (0000ms, 4465ms total)
T4F54 5475:126 JLINK_ReadMemEx(0x000004A0, 0x003C Bytes, ..., Flags = 0x02000000) -- Read from C cache (60 bytes @ 0x000004A0) - Data: 80 47 62 B6 06 48 00 47 FE E7 FE E7 FE E7 FE E7 ...  returns 0x3C (0000ms, 4465ms total)
T4F54 5475:126 JLINK_ReadMemEx(0x000004A0, 0x0002 Bytes, ..., Flags = 0x02000000) -- Read from C cache (2 bytes @ 0x000004A0) - Data: 80 47  returns 0x02 (0000ms, 4465ms total)
T4F54 5477:446 JLINK_ReadReg(R0)  returns 0x00000000 (0000ms, 4465ms total)
T4F54 5477:446 JLINK_ReadReg(R1)  returns 0x00000000 (0000ms, 4465ms total)
T4F54 5477:446 JLINK_ReadReg(R2)  returns 0x00000000 (0000ms, 4465ms total)
T4F54 5477:446 JLINK_ReadReg(R3)  returns 0x00000000 (0000ms, 4465ms total)
T4F54 5477:446 JLINK_ReadReg(R4)  returns 0x00000000 (0000ms, 4465ms total)
T4F54 5477:446 JLINK_ReadReg(R5)  returns 0x00000000 (0000ms, 4465ms total)
T4F54 5477:446 JLINK_ReadReg(R6)  returns 0x00000000 (0000ms, 4465ms total)
T4F54 5477:446 JLINK_ReadReg(R7)  returns 0x00000000 (0000ms, 4465ms total)
T4F54 5477:446 JLINK_ReadReg(R8)  returns 0x00000000 (0001ms, 4466ms total)
T4F54 5477:447 JLINK_ReadReg(R9)  returns 0x00000000 (0000ms, 4466ms total)
T4F54 5477:447 JLINK_ReadReg(R10)  returns 0x00000000 (0000ms, 4466ms total)
T4F54 5477:447 JLINK_ReadReg(R11)  returns 0x00000000 (0000ms, 4466ms total)
T4F54 5477:447 JLINK_ReadReg(R12)  returns 0x00000000 (0000ms, 4466ms total)
T4F54 5477:447 JLINK_ReadReg(R13 (SP))  returns 0x1FFF7B30 (0000ms, 4466ms total)
T4F54 5477:447 JLINK_ReadReg(R14)  returns 0xFFFFFFFF (0000ms, 4466ms total)
T4F54 5477:447 JLINK_ReadReg(R15 (PC))  returns 0x0000049C (0000ms, 4466ms total)
T4F54 5477:447 JLINK_ReadReg(XPSR)  returns 0x01000000 (0000ms, 4466ms total)
T4F54 5477:447 JLINK_ReadReg(MSP)  returns 0x1FFF7B30 (0000ms, 4466ms total)
T4F54 5477:447 JLINK_ReadReg(PSP)  returns 0x00000000 (0000ms, 4466ms total)
T4F54 5477:447 JLINK_ReadReg(CFBP)  returns 0x00000000 (0000ms, 4466ms total)
T4F54 5477:447 JLINK_ReadReg(FPSCR)  returns 0x00000000 (0003ms, 4469ms total)
T4F54 5477:450 JLINK_ReadReg(FPS0)  returns 0x00000000 (0000ms, 4469ms total)
T4F54 5477:450 JLINK_ReadReg(FPS1)  returns 0x00000000 (0000ms, 4469ms total)
T4F54 5477:450 JLINK_ReadReg(FPS2)  returns 0x00000000 (0000ms, 4469ms total)
T4F54 5477:450 JLINK_ReadReg(FPS3)  returns 0x00000000 (0000ms, 4469ms total)
T4F54 5477:450 JLINK_ReadReg(FPS4)  returns 0x00000000 (0000ms, 4469ms total)
T4F54 5477:450 JLINK_ReadReg(FPS5)  returns 0x00000000 (0000ms, 4469ms total)
T4F54 5477:450 JLINK_ReadReg(FPS6)  returns 0x00000000 (0000ms, 4469ms total)
T4F54 5477:450 JLINK_ReadReg(FPS7)  returns 0x00000000 (0000ms, 4469ms total)
T4F54 5477:450 JLINK_ReadReg(FPS8)  returns 0x00000000 (0000ms, 4469ms total)
T4F54 5477:450 JLINK_ReadReg(FPS9)  returns 0x00000000 (0000ms, 4469ms total)
T4F54 5477:450 JLINK_ReadReg(FPS10)  returns 0x00000000 (0000ms, 4469ms total)
T4F54 5477:450 JLINK_ReadReg(FPS11)  returns 0x00000000 (0000ms, 4469ms total)
T4F54 5477:450 JLINK_ReadReg(FPS12)  returns 0x00000000 (0000ms, 4469ms total)
T4F54 5477:450 JLINK_ReadReg(FPS13)  returns 0x00000000 (0000ms, 4469ms total)
T4F54 5477:450 JLINK_ReadReg(FPS14)  returns 0x00000000 (0000ms, 4469ms total)
T4F54 5477:450 JLINK_ReadReg(FPS15)  returns 0x00000000 (0000ms, 4469ms total)
T4F54 5477:450 JLINK_ReadReg(FPS16)  returns 0x00000000 (0000ms, 4469ms total)
T4F54 5477:450 JLINK_ReadReg(FPS17)  returns 0x00000000 (0000ms, 4469ms total)
T4F54 5477:450 JLINK_ReadReg(FPS18)  returns 0x00000000 (0000ms, 4469ms total)
T4F54 5477:450 JLINK_ReadReg(FPS19)  returns 0x00000000 (0000ms, 4469ms total)
T4F54 5477:450 JLINK_ReadReg(FPS20)  returns 0x00000000 (0000ms, 4469ms total)
T4F54 5477:450 JLINK_ReadReg(FPS21)  returns 0x00000000 (0000ms, 4469ms total)
T4F54 5477:450 JLINK_ReadReg(FPS22)  returns 0x00000000 (0000ms, 4469ms total)
T4F54 5477:450 JLINK_ReadReg(FPS23)  returns 0x00000000 (0000ms, 4469ms total)
T4F54 5477:450 JLINK_ReadReg(FPS24)  returns 0x00000000 (0000ms, 4469ms total)
T4F54 5477:450 JLINK_ReadReg(FPS25)  returns 0x00000000 (0000ms, 4469ms total)
T4F54 5477:450 JLINK_ReadReg(FPS26)  returns 0x00000000 (0000ms, 4469ms total)
T4F54 5477:450 JLINK_ReadReg(FPS27)  returns 0x00000000 (0000ms, 4469ms total)
T4F54 5477:450 JLINK_ReadReg(FPS28)  returns 0x00000000 (0000ms, 4469ms total)
T4F54 5477:450 JLINK_ReadReg(FPS29)  returns 0x00000000 (0000ms, 4469ms total)
T4F54 5477:450 JLINK_ReadReg(FPS30)  returns 0x00000000 (0000ms, 4469ms total)
T4F54 5477:450 JLINK_ReadReg(FPS31)  returns 0x00000000 (0000ms, 4469ms total)
T08FC 5477:543 JLINK_ReadMemEx(0x0000049C, 0x0002 Bytes, ..., Flags = 0x02000000) -- Read from C cache (2 bytes @ 0x0000049C) - Data: 72 B6  returns 0x02 (0000ms, 4469ms total)
T08FC 5477:543 JLINK_SetBPEx(Addr = 0x00001058, Type = 0xFFFFFFF2)  returns 0x00000001 (0000ms, 4469ms total)
T08FC 5477:543 JLINK_SetBPEx(Addr = 0x00000B6E, Type = 0xFFFFFFF2)  returns 0x00000002 (0000ms, 4469ms total)
T08FC 5477:543 JLINK_Go() -- CPU_ReadMem(4 bytes @ 0xE0001000) -- CPU_WriteMem(4 bytes @ 0xE0002008) -- CPU_WriteMem(4 bytes @ 0xE000200C) -- CPU_WriteMem(4 bytes @ 0xE0002010) -- CPU_WriteMem(4 bytes @ 0xE0002014) -- CPU_WriteMem(4 bytes @ 0xE0002018) -- CPU_WriteMem(4 bytes @ 0xE000201C) -- CPU_WriteMem(4 bytes @ 0xE0001004) (0003ms, 4472ms total)
T08FC 5477:647 JLINK_IsHalted()  returns TRUE (0001ms, 4473ms total)
T08FC 5477:648 JLINK_Halt()  returns 0x00 (0000ms, 4472ms total)
T08FC 5477:648 JLINK_IsHalted()  returns TRUE (0000ms, 4472ms total)
T08FC 5477:648 JLINK_IsHalted()  returns TRUE (0001ms, 4473ms total)
T08FC 5477:649 JLINK_IsHalted()  returns TRUE (0000ms, 4472ms total)
T08FC 5477:649 JLINK_ReadReg(R15 (PC))  returns 0x00001058 (0000ms, 4472ms total)
T08FC 5477:649 JLINK_ReadReg(XPSR)  returns 0x61000000 (0000ms, 4472ms total)
T08FC 5477:649 JLINK_ClrBPEx(BPHandle = 0x00000001)  returns 0x00 (0000ms, 4472ms total)
T08FC 5477:649 JLINK_ClrBPEx(BPHandle = 0x00000002)  returns 0x00 (0000ms, 4472ms total)
T08FC 5477:649 JLINK_ReadMemU32(0xE000ED30, 0x0001 Items, ...) -- CPU_ReadMem(4 bytes @ 0xE000ED30) - Data: 03 00 00 00  returns 1 (0000ms, 4472ms total)
T08FC 5477:649 JLINK_ReadMemU32(0xE0001028, 0x0001 Items, ...) -- CPU_ReadMem(4 bytes @ 0xE0001028) - Data: 00 00 00 00  returns 1 (0001ms, 4473ms total)
T08FC 5477:650 JLINK_ReadMemU32(0xE0001038, 0x0001 Items, ...) -- CPU_ReadMem(4 bytes @ 0xE0001038) - Data: 00 02 00 00  returns 1 (0000ms, 4473ms total)
T08FC 5477:650 JLINK_ReadMemU32(0xE0001048, 0x0001 Items, ...) -- CPU_ReadMem(4 bytes @ 0xE0001048) - Data: 00 00 00 00  returns 1 (0000ms, 4473ms total)
T08FC 5477:650 JLINK_ReadMemU32(0xE0001058, 0x0001 Items, ...) -- CPU_ReadMem(4 bytes @ 0xE0001058) - Data: 00 00 00 00  returns 1 (0001ms, 4474ms total)
T08FC 5477:651 JLINK_ReadReg(R0)  returns 0x00001059 (0000ms, 4474ms total)
T08FC 5477:651 JLINK_ReadReg(R1)  returns 0x1FFF7B30 (0000ms, 4474ms total)
T08FC 5477:651 JLINK_ReadReg(R2)  returns 0x00000000 (0000ms, 4474ms total)
T08FC 5477:651 JLINK_ReadReg(R3)  returns 0x00000AED (0000ms, 4474ms total)
T08FC 5477:651 JLINK_ReadReg(R4)  returns 0x000034A4 (0000ms, 4474ms total)
T08FC 5477:651 JLINK_ReadReg(R5)  returns 0x000034A4 (0000ms, 4474ms total)
T08FC 5477:651 JLINK_ReadReg(R6)  returns 0x00000000 (0000ms, 4474ms total)
T08FC 5477:651 JLINK_ReadReg(R7)  returns 0x00000000 (0000ms, 4474ms total)
T08FC 5477:651 JLINK_ReadReg(R8)  returns 0x00000000 (0000ms, 4474ms total)
T08FC 5477:651 JLINK_ReadReg(R9)  returns 0x00000000 (0000ms, 4474ms total)
T08FC 5477:651 JLINK_ReadReg(R10)  returns 0x00000000 (0000ms, 4474ms total)
T08FC 5477:651 JLINK_ReadReg(R11)  returns 0x00000000 (0000ms, 4474ms total)
T08FC 5477:651 JLINK_ReadReg(R12)  returns 0x00000000 (0000ms, 4474ms total)
T08FC 5477:651 JLINK_ReadReg(R13 (SP))  returns 0x1FFF7B30 (0000ms, 4474ms total)
T08FC 5477:651 JLINK_ReadReg(R14)  returns 0x00000529 (0000ms, 4474ms total)
T08FC 5477:651 JLINK_ReadReg(R15 (PC))  returns 0x00001058 (0000ms, 4474ms total)
T08FC 5477:651 JLINK_ReadReg(XPSR)  returns 0x61000000 (0000ms, 4474ms total)
T08FC 5477:651 JLINK_ReadReg(MSP)  returns 0x1FFF7B30 (0000ms, 4474ms total)
T08FC 5477:651 JLINK_ReadReg(PSP)  returns 0x00000000 (0000ms, 4474ms total)
T08FC 5477:651 JLINK_ReadReg(CFBP)  returns 0x00000000 (0000ms, 4474ms total)
T08FC 5477:651 JLINK_ReadReg(FPSCR)  returns 0x00000000 (0003ms, 4477ms total)
T08FC 5477:654 JLINK_ReadReg(FPS0)  returns 0x00000000 (0000ms, 4477ms total)
T08FC 5477:654 JLINK_ReadReg(FPS1)  returns 0x00000000 (0000ms, 4477ms total)
T08FC 5477:654 JLINK_ReadReg(FPS2)  returns 0x00000000 (0000ms, 4477ms total)
T08FC 5477:654 JLINK_ReadReg(FPS3)  returns 0x00000000 (0000ms, 4477ms total)
T08FC 5477:654 JLINK_ReadReg(FPS4)  returns 0x00000000 (0000ms, 4477ms total)
T08FC 5477:654 JLINK_ReadReg(FPS5)  returns 0x00000000 (0000ms, 4477ms total)
T08FC 5477:654 JLINK_ReadReg(FPS6)  returns 0x00000000 (0000ms, 4477ms total)
T08FC 5477:654 JLINK_ReadReg(FPS7)  returns 0x00000000 (0000ms, 4477ms total)
T08FC 5477:654 JLINK_ReadReg(FPS8)  returns 0x00000000 (0001ms, 4478ms total)
T08FC 5477:655 JLINK_ReadReg(FPS9)  returns 0x00000000 (0000ms, 4478ms total)
T08FC 5477:655 JLINK_ReadReg(FPS10)  returns 0x00000000 (0000ms, 4478ms total)
T08FC 5477:655 JLINK_ReadReg(FPS11)  returns 0x00000000 (0000ms, 4478ms total)
T08FC 5477:655 JLINK_ReadReg(FPS12)  returns 0x00000000 (0000ms, 4478ms total)
T08FC 5477:655 JLINK_ReadReg(FPS13)  returns 0x00000000 (0000ms, 4478ms total)
T08FC 5477:655 JLINK_ReadReg(FPS14)  returns 0x00000000 (0000ms, 4478ms total)
T08FC 5477:655 JLINK_ReadReg(FPS15)  returns 0x00000000 (0000ms, 4478ms total)
T08FC 5477:655 JLINK_ReadReg(FPS16)  returns 0x00000000 (0000ms, 4478ms total)
T08FC 5477:655 JLINK_ReadReg(FPS17)  returns 0x00000000 (0000ms, 4478ms total)
T08FC 5477:655 JLINK_ReadReg(FPS18)  returns 0x00000000 (0000ms, 4478ms total)
T08FC 5477:655 JLINK_ReadReg(FPS19)  returns 0x00000000 (0000ms, 4478ms total)
T08FC 5477:655 JLINK_ReadReg(FPS20)  returns 0x00000000 (0000ms, 4478ms total)
T08FC 5477:655 JLINK_ReadReg(FPS21)  returns 0x00000000 (0000ms, 4478ms total)
T08FC 5477:655 JLINK_ReadReg(FPS22)  returns 0x00000000 (0000ms, 4478ms total)
T08FC 5477:655 JLINK_ReadReg(FPS23)  returns 0x00000000 (0000ms, 4478ms total)
T08FC 5477:655 JLINK_ReadReg(FPS24)  returns 0x00000000 (0000ms, 4478ms total)
T08FC 5477:655 JLINK_ReadReg(FPS25)  returns 0x00000000 (0000ms, 4478ms total)
T08FC 5477:655 JLINK_ReadReg(FPS26)  returns 0x00000000 (0000ms, 4478ms total)
T08FC 5477:655 JLINK_ReadReg(FPS27)  returns 0x00000000 (0000ms, 4478ms total)
T08FC 5477:655 JLINK_ReadReg(FPS28)  returns 0x00000000 (0000ms, 4478ms total)
T08FC 5477:655 JLINK_ReadReg(FPS29)  returns 0x00000000 (0000ms, 4478ms total)
T08FC 5477:655 JLINK_ReadReg(FPS30)  returns 0x00000000 (0000ms, 4478ms total)
T08FC 5477:655 JLINK_ReadReg(FPS31)  returns 0x00000000 (0000ms, 4478ms total)
T4F54 5477:687 JLINK_ReadMemEx(0x00001058, 0x003C Bytes, ..., Flags = 0x02000000) -- CPU_ReadMem(128 bytes @ 0x00001040) -- Updating C cache (128 bytes @ 0x00001040) -- Read from C cache (60 bytes @ 0x00001058) - Data: 1C B5 FF F7 EB FE 62 B6 00 22 01 21 0E 20 FF F7 ...  returns 0x3C (0002ms, 4480ms total)
T4F54 5477:689 JLINK_ReadMemEx(0x00001058, 0x0002 Bytes, ..., Flags = 0x02000000) -- Read from C cache (2 bytes @ 0x00001058) - Data: 1C B5  returns 0x02 (0000ms, 4480ms total)
T4F54 5477:689 JLINK_ReadMemEx(0x0000105A, 0x0002 Bytes, ..., Flags = 0x02000000) -- Read from C cache (2 bytes @ 0x0000105A) - Data: FF F7  returns 0x02 (0000ms, 4480ms total)
T4F54 5477:689 JLINK_ReadMemEx(0x0000105A, 0x0002 Bytes, ..., Flags = 0x02000000) -- Read from C cache (2 bytes @ 0x0000105A) - Data: FF F7  returns 0x02 (0000ms, 4480ms total)
T4F54 5477:689 JLINK_ReadMemEx(0x0000105C, 0x003C Bytes, ..., Flags = 0x02000000) -- Read from C cache (60 bytes @ 0x0000105C) - Data: EB FE 62 B6 00 22 01 21 0E 20 FF F7 55 FF 00 22 ...  returns 0x3C (0000ms, 4480ms total)
T4F54 5477:689 JLINK_ReadMemEx(0x0000105C, 0x0002 Bytes, ..., Flags = 0x02000000) -- Read from C cache (2 bytes @ 0x0000105C) - Data: EB FE  returns 0x02 (0000ms, 4480ms total)
T4F54 5481:090 JLINK_ReadMemEx(0x00000B16, 0x0002 Bytes, ..., Flags = 0x02000000) -- CPU_ReadMem(64 bytes @ 0x00000B00) -- Updating C cache (64 bytes @ 0x00000B00) -- Read from C cache (2 bytes @ 0x00000B16) - Data: 00 20  returns 0x02 (0001ms, 4481ms total)
T4F54 5481:091 JLINK_ReadMemEx(0x00000B18, 0x003C Bytes, ..., Flags = 0x02000000) -- CPU_ReadMem(64 bytes @ 0x00000B40) -- Updating C cache (64 bytes @ 0x00000B40) -- Read from C cache (60 bytes @ 0x00000B18) - Data: 3F 49 08 70 00 24 1C E0 A5 20 8D F8 0C 00 3D 48 ...  returns 0x3C (0000ms, 4481ms total)
T4F54 5481:091 JLINK_ReadMemEx(0x00000B18, 0x0002 Bytes, ..., Flags = 0x02000000) -- Read from C cache (2 bytes @ 0x00000B18) - Data: 3F 49  returns 0x02 (0000ms, 4481ms total)
T4F54 5481:091 JLINK_ReadMemEx(0x00000B18, 0x003C Bytes, ..., Flags = 0x02000000) -- Read from C cache (60 bytes @ 0x00000B18) - Data: 3F 49 08 70 00 24 1C E0 A5 20 8D F8 0C 00 3D 48 ...  returns 0x3C (0000ms, 4481ms total)
T4F54 5481:091 JLINK_ReadMemEx(0x00000B18, 0x0002 Bytes, ..., Flags = 0x02000000) -- Read from C cache (2 bytes @ 0x00000B18) - Data: 3F 49  returns 0x02 (0000ms, 4481ms total)
T4F54 5481:091 JLINK_ReadMemEx(0x00000B1A, 0x0002 Bytes, ..., Flags = 0x02000000) -- Read from C cache (2 bytes @ 0x00000B1A) - Data: 08 70  returns 0x02 (0000ms, 4481ms total)
T4F54 5484:021 JLINK_ReadMemEx(0x1FFF0034, 0x0001 Bytes, ..., Flags = 0x02000000) -- CPU_ReadMem(64 bytes @ 0x1FFF0000) -- Updating C cache (64 bytes @ 0x1FFF0000) -- Read from C cache (1 bytes @ 0x1FFF0034) - Data: 01  returns 0x01 (0001ms, 4482ms total)
T4F54 5486:197 JLINK_ReadMemEx(0x1FFF0034, 0x0001 Bytes, ..., Flags = 0x02000000) -- Read from C cache (1 bytes @ 0x1FFF0034) - Data: 01  returns 0x01 (0000ms, 4482ms total)
T4F54 5486:197 JLINK_ReadMemEx(0x1FFF0034, 0x0001 Bytes, ..., Flags = 0x02000000) -- Read from C cache (1 bytes @ 0x1FFF0034) - Data: 01  returns 0x01 (0000ms, 4482ms total)
T4F54 5486:197 JLINK_ReadMemEx(0x1FFF0034, 0x0001 Bytes, ..., Flags = 0x02000000) -- Read from C cache (1 bytes @ 0x1FFF0034) - Data: 01  returns 0x01 (0000ms, 4482ms total)
T08FC 5491:910 JLINK_ReadMemEx(0x00001058, 0x0002 Bytes, ..., Flags = 0x02000000) -- Read from C cache (2 bytes @ 0x00001058) - Data: 1C B5  returns 0x02 (0000ms, 4482ms total)
T08FC 5491:910 JLINK_SetBPEx(Addr = 0x00000B6E, Type = 0xFFFFFFF2)  returns 0x00000003 (0000ms, 4482ms total)
T08FC 5491:910 JLINK_SetBPEx(Addr = 0x00000AFE, Type = 0xFFFFFFF2)  returns 0x00000004 (0000ms, 4482ms total)
T08FC 5491:910 JLINK_Go() -- CPU_ReadMem(4 bytes @ 0xE0001000) -- CPU_WriteMem(4 bytes @ 0xE0002008) -- CPU_WriteMem(4 bytes @ 0xE000200C) (0002ms, 4484ms total)
T08FC 5492:013 JLINK_IsHalted()  returns TRUE (0001ms, 4485ms total)
T08FC 5492:014 JLINK_Halt()  returns 0x00 (0000ms, 4484ms total)
T08FC 5492:014 JLINK_IsHalted()  returns TRUE (0000ms, 4484ms total)
T08FC 5492:014 JLINK_IsHalted()  returns TRUE (0001ms, 4485ms total)
T08FC 5492:015 JLINK_IsHalted()  returns TRUE (0000ms, 4484ms total)
T08FC 5492:015 JLINK_ReadReg(R15 (PC))  returns 0x00000AFE (0000ms, 4484ms total)
T08FC 5492:015 JLINK_ReadReg(XPSR)  returns 0x01000000 (0000ms, 4484ms total)
T08FC 5492:015 JLINK_ClrBPEx(BPHandle = 0x00000003)  returns 0x00 (0000ms, 4484ms total)
T08FC 5492:015 JLINK_ClrBPEx(BPHandle = 0x00000004)  returns 0x00 (0000ms, 4484ms total)
T08FC 5492:015 JLINK_ReadMemU32(0xE000ED30, 0x0001 Items, ...) -- CPU_ReadMem(4 bytes @ 0xE000ED30) - Data: 02 00 00 00  returns 1 (0000ms, 4484ms total)
T08FC 5492:015 JLINK_ReadMemU32(0xE0001028, 0x0001 Items, ...) -- CPU_ReadMem(4 bytes @ 0xE0001028) - Data: 00 00 00 00  returns 1 (0001ms, 4485ms total)
T08FC 5492:016 JLINK_ReadMemU32(0xE0001038, 0x0001 Items, ...) -- CPU_ReadMem(4 bytes @ 0xE0001038) - Data: 00 02 00 00  returns 1 (0000ms, 4485ms total)
T08FC 5492:016 JLINK_ReadMemU32(0xE0001048, 0x0001 Items, ...) -- CPU_ReadMem(4 bytes @ 0xE0001048) - Data: 00 00 00 00  returns 1 (0000ms, 4485ms total)
T08FC 5492:016 JLINK_ReadMemU32(0xE0001058, 0x0001 Items, ...) -- CPU_ReadMem(4 bytes @ 0xE0001058) - Data: 00 00 00 00  returns 1 (0001ms, 4486ms total)
T08FC 5492:017 JLINK_ReadReg(R0)  returns 0x00000000 (0000ms, 4486ms total)
T08FC 5492:017 JLINK_ReadReg(R1)  returns 0xA5A5A5A5 (0000ms, 4486ms total)
T08FC 5492:017 JLINK_ReadReg(R2)  returns 0xA5A5A5A5 (0000ms, 4486ms total)
T08FC 5492:017 JLINK_ReadReg(R3)  returns 0xA5A5A5A5 (0000ms, 4486ms total)
T08FC 5492:017 JLINK_ReadReg(R4)  returns 0xA5A5A5A5 (0000ms, 4486ms total)
T08FC 5492:017 JLINK_ReadReg(R5)  returns 0xA5A5A5A5 (0000ms, 4486ms total)
T08FC 5492:017 JLINK_ReadReg(R6)  returns 0xA5A5A5A5 (0000ms, 4486ms total)
T08FC 5492:017 JLINK_ReadReg(R7)  returns 0xA5A5A5A5 (0000ms, 4486ms total)
T08FC 5492:017 JLINK_ReadReg(R8)  returns 0xA5A5A5A5 (0000ms, 4486ms total)
T08FC 5492:017 JLINK_ReadReg(R9)  returns 0xA5A5A5A5 (0000ms, 4486ms total)
T08FC 5492:017 JLINK_ReadReg(R10)  returns 0xA5A5A5A5 (0000ms, 4486ms total)
T08FC 5492:017 JLINK_ReadReg(R11)  returns 0xA5A5A5A5 (0000ms, 4486ms total)
T08FC 5492:017 JLINK_ReadReg(R12)  returns 0xA5A5A5A5 (0000ms, 4486ms total)
T08FC 5492:017 JLINK_ReadReg(R13 (SP))  returns 0x1FFF6A90 (0000ms, 4486ms total)
T08FC 5492:017 JLINK_ReadReg(R14)  returns 0x00000979 (0000ms, 4486ms total)
T08FC 5492:017 JLINK_ReadReg(R15 (PC))  returns 0x00000AFE (0000ms, 4486ms total)
T08FC 5492:017 JLINK_ReadReg(XPSR)  returns 0x01000000 (0000ms, 4486ms total)
T08FC 5492:017 JLINK_ReadReg(MSP)  returns 0x1FFF7B08 (0000ms, 4486ms total)
T08FC 5492:017 JLINK_ReadReg(PSP)  returns 0x1FFF6A90 (0000ms, 4486ms total)
T08FC 5492:017 JLINK_ReadReg(CFBP)  returns 0x02000000 (0000ms, 4486ms total)
T08FC 5492:017 JLINK_ReadReg(FPSCR)  returns 0x00000000 (0003ms, 4489ms total)
T08FC 5492:020 JLINK_ReadReg(FPS0)  returns 0x00000000 (0000ms, 4489ms total)
T08FC 5492:020 JLINK_ReadReg(FPS1)  returns 0x00000000 (0000ms, 4489ms total)
T08FC 5492:020 JLINK_ReadReg(FPS2)  returns 0x00000000 (0000ms, 4489ms total)
T08FC 5492:020 JLINK_ReadReg(FPS3)  returns 0x00000000 (0000ms, 4489ms total)
T08FC 5492:020 JLINK_ReadReg(FPS4)  returns 0x00000000 (0000ms, 4489ms total)
T08FC 5492:020 JLINK_ReadReg(FPS5)  returns 0x00000000 (0000ms, 4489ms total)
T08FC 5492:020 JLINK_ReadReg(FPS6)  returns 0x00000000 (0000ms, 4489ms total)
T08FC 5492:020 JLINK_ReadReg(FPS7)  returns 0x00000000 (0000ms, 4489ms total)
T08FC 5492:020 JLINK_ReadReg(FPS8)  returns 0x00000000 (0000ms, 4489ms total)
T08FC 5492:020 JLINK_ReadReg(FPS9)  returns 0x00000000 (0000ms, 4489ms total)
T08FC 5492:020 JLINK_ReadReg(FPS10)  returns 0x00000000 (0000ms, 4489ms total)
T08FC 5492:020 JLINK_ReadReg(FPS11)  returns 0x00000000 (0000ms, 4489ms total)
T08FC 5492:020 JLINK_ReadReg(FPS12)  returns 0x00000000 (0000ms, 4489ms total)
T08FC 5492:020 JLINK_ReadReg(FPS13)  returns 0x00000000 (0000ms, 4489ms total)
T08FC 5492:020 JLINK_ReadReg(FPS14)  returns 0x00000000 (0000ms, 4489ms total)
T08FC 5492:020 JLINK_ReadReg(FPS15)  returns 0x00000000 (0000ms, 4489ms total)
T08FC 5492:020 JLINK_ReadReg(FPS16)  returns 0x00000000 (0000ms, 4489ms total)
T08FC 5492:020 JLINK_ReadReg(FPS17)  returns 0x00000000 (0000ms, 4489ms total)
T08FC 5492:020 JLINK_ReadReg(FPS18)  returns 0x00000000 (0000ms, 4489ms total)
T08FC 5492:020 JLINK_ReadReg(FPS19)  returns 0x00000000 (0000ms, 4489ms total)
T08FC 5492:020 JLINK_ReadReg(FPS20)  returns 0x00000000 (0000ms, 4489ms total)
T08FC 5492:020 JLINK_ReadReg(FPS21)  returns 0x00000000 (0000ms, 4489ms total)
T08FC 5492:020 JLINK_ReadReg(FPS22)  returns 0x00000000 (0000ms, 4489ms total)
T08FC 5492:020 JLINK_ReadReg(FPS23)  returns 0x00000000 (0000ms, 4489ms total)
T08FC 5492:020 JLINK_ReadReg(FPS24)  returns 0x00000000 (0000ms, 4489ms total)
T08FC 5492:020 JLINK_ReadReg(FPS25)  returns 0x00000000 (0000ms, 4489ms total)
T08FC 5492:020 JLINK_ReadReg(FPS26)  returns 0x00000000 (0000ms, 4489ms total)
T08FC 5492:020 JLINK_ReadReg(FPS27)  returns 0x00000000 (0000ms, 4489ms total)
T08FC 5492:020 JLINK_ReadReg(FPS28)  returns 0x00000000 (0000ms, 4489ms total)
T08FC 5492:020 JLINK_ReadReg(FPS29)  returns 0x00000000 (0000ms, 4489ms total)
T08FC 5492:020 JLINK_ReadReg(FPS30)  returns 0x00000000 (0000ms, 4489ms total)
T08FC 5492:020 JLINK_ReadReg(FPS31)  returns 0x00000000 (0000ms, 4489ms total)
T4F54 5492:020 JLINK_ReadMemEx(0x1FFF6AAC, 0x0004 Bytes, ..., Flags = 0x02000000) -- CPU_ReadMem(64 bytes @ 0x1FFF6A80) -- Updating C cache (64 bytes @ 0x1FFF6A80) -- Read from C cache (4 bytes @ 0x1FFF6AAC) - Data: 79 09 00 00  returns 0x04 (0001ms, 4490ms total)
T4F54 5492:021 JLINK_ReadMemEx(0x1FFF6AA0, 0x0004 Bytes, ..., Flags = 0x02000000) -- Read from C cache (4 bytes @ 0x1FFF6AA0) - Data: A5 A5 A5 A5  returns 0x04 (0000ms, 4490ms total)
T4F54 5492:021 JLINK_ReadMemEx(0x1FFF6AA4, 0x0004 Bytes, ..., Flags = 0x02000000) -- Read from C cache (4 bytes @ 0x1FFF6AA4) - Data: A5 A5 A5 A5  returns 0x04 (0000ms, 4490ms total)
T4F54 5492:021 JLINK_ReadMemEx(0x1FFF6AA8, 0x0004 Bytes, ..., Flags = 0x02000000) -- Read from C cache (4 bytes @ 0x1FFF6AA8) - Data: A5 A5 A5 A5  returns 0x04 (0000ms, 4490ms total)
T4F54 5492:021 JLINK_ReadMemEx(0x1FFF6AAC, 0x0004 Bytes, ..., Flags = 0x02000000) -- Read from C cache (4 bytes @ 0x1FFF6AAC) - Data: 79 09 00 00  returns 0x04 (0000ms, 4490ms total)
T4F54 5492:022 JLINK_ReadMemEx(0x1FFF6A9C, 0x0004 Bytes, ..., Flags = 0x02000000) -- Read from C cache (4 bytes @ 0x1FFF6A9C) - Data: A5 A5 A5 A5  returns 0x04 (0000ms, 4490ms total)
T4F54 5492:023 JLINK_ReadMemEx(0x1FFF6A9C, 0x0004 Bytes, ..., Flags = 0x02000000) -- Read from C cache (4 bytes @ 0x1FFF6A9C) - Data: A5 A5 A5 A5  returns 0x04 (0000ms, 4490ms total)
T4F54 5492:024 JLINK_ReadMemEx(0x1FFF0034, 0x0001 Bytes, ..., Flags = 0x02000000) -- CPU_ReadMem(64 bytes @ 0x1FFF0000) -- Updating C cache (64 bytes @ 0x1FFF0000) -- Read from C cache (1 bytes @ 0x1FFF0034) - Data: 01  returns 0x01 (0001ms, 4491ms total)
T4F54 5492:030 JLINK_ReadMemEx(0x00000AFE, 0x0002 Bytes, ..., Flags = 0x02000000) -- CPU_ReadMem(64 bytes @ 0x00000AC0) -- Updating C cache (64 bytes @ 0x00000AC0) -- Read from C cache (2 bytes @ 0x00000AFE) - Data: 4F F4  returns 0x02 (0001ms, 4492ms total)
T4F54 5492:031 JLINK_ReadMemEx(0x00000B00, 0x003C Bytes, ..., Flags = 0x02000000) -- CPU_ReadMem(64 bytes @ 0x00000B00) -- Updating C cache (64 bytes @ 0x00000B00) -- Read from C cache (60 bytes @ 0x00000B00) - Data: 16 51 03 20 01 F0 CE F8 03 20 01 F0 D7 F9 4F F4 ...  returns 0x3C (0001ms, 4493ms total)
T4F54 5492:032 JLINK_ReadMemEx(0x00000B00, 0x0002 Bytes, ..., Flags = 0x02000000) -- Read from C cache (2 bytes @ 0x00000B00) - Data: 16 51  returns 0x02 (0000ms, 4493ms total)
T4F54 5492:032 JLINK_ReadMemEx(0x00000B02, 0x0002 Bytes, ..., Flags = 0x02000000) -- Read from C cache (2 bytes @ 0x00000B02) - Data: 03 20  returns 0x02 (0000ms, 4493ms total)
T4F54 5492:032 JLINK_ReadMemEx(0x00000B04, 0x003C Bytes, ..., Flags = 0x02000000) -- Read from C cache (60 bytes @ 0x00000B04) - Data: 01 F0 CE F8 03 20 01 F0 D7 F9 4F F4 7A 70 01 F0 ...  returns 0x3C (0000ms, 4493ms total)
T4F54 5492:032 JLINK_ReadMemEx(0x00000B04, 0x0002 Bytes, ..., Flags = 0x02000000) -- Read from C cache (2 bytes @ 0x00000B04) - Data: 01 F0  returns 0x02 (0000ms, 4493ms total)
T4F54 5492:032 JLINK_ReadMemEx(0x00000B04, 0x003C Bytes, ..., Flags = 0x02000000) -- Read from C cache (60 bytes @ 0x00000B04) - Data: 01 F0 CE F8 03 20 01 F0 D7 F9 4F F4 7A 70 01 F0 ...  returns 0x3C (0000ms, 4493ms total)
T4F54 5492:032 JLINK_ReadMemEx(0x00000B04, 0x0002 Bytes, ..., Flags = 0x02000000) -- Read from C cache (2 bytes @ 0x00000B04) - Data: 01 F0  returns 0x02 (0000ms, 4493ms total)
T4F54 5492:032 JLINK_ReadMemEx(0x00000B06, 0x0002 Bytes, ..., Flags = 0x02000000) -- Read from C cache (2 bytes @ 0x00000B06) - Data: CE F8  returns 0x02 (0000ms, 4493ms total)
T08FC 5494:336 JLINK_ReadMemEx(0x00000AFE, 0x0002 Bytes, ..., Flags = 0x02000000) -- Read from C cache (2 bytes @ 0x00000AFE) - Data: 4F F4  returns 0x02 (0000ms, 4493ms total)
T08FC 5494:336 JLINK_Step() -- Read from C cache (2 bytes @ 0x00000AFE) -- CPU_ReadMem(4 bytes @ 0xE000ED18) -- CPU_WriteMem(4 bytes @ 0xE000ED18) -- CPU_ReadMem(4 bytes @ 0xE000ED18) -- CPU_WriteMem(4 bytes @ 0xE000ED18) -- CPU_ReadMem(4 bytes @ 0xE0001004) -- Read from C cache (2 bytes @ 0x00000B00) -- Simulated  returns 0x00 (0001ms, 4494ms total)
T08FC 5494:337 JLINK_ReadReg(R15 (PC))  returns 0x00000B02 (0000ms, 4494ms total)
T08FC 5494:337 JLINK_ReadReg(XPSR)  returns 0x01000000 (0001ms, 4495ms total)
T08FC 5494:338 JLINK_ReadMemEx(0x00000B00, 0x003C Bytes, ..., Flags = 0x02000000) -- Read from C cache (60 bytes @ 0x00000B00) - Data: 16 51 03 20 01 F0 CE F8 03 20 01 F0 D7 F9 4F F4 ...  returns 0x3C (0000ms, 4495ms total)
T08FC 5494:338 JLINK_ReadMemEx(0x00000B00, 0x0002 Bytes, ..., Flags = 0x02000000) -- Read from C cache (2 bytes @ 0x00000B00) - Data: 16 51  returns 0x02 (0000ms, 4495ms total)
T08FC 5494:338 JLINK_ReadMemEx(0x00000B02, 0x0002 Bytes, ..., Flags = 0x02000000) -- Read from C cache (2 bytes @ 0x00000B02) - Data: 03 20  returns 0x02 (0000ms, 4495ms total)
T08FC 5494:338 JLINK_Step() -- Read from C cache (2 bytes @ 0x00000B02) -- Simulated  returns 0x00 (0000ms, 4495ms total)
T08FC 5494:338 JLINK_ReadReg(R15 (PC))  returns 0x00000B04 (0000ms, 4495ms total)
T08FC 5494:338 JLINK_ReadReg(XPSR)  returns 0x01000000 (0000ms, 4495ms total)
T08FC 5494:338 JLINK_SetBPEx(Addr = 0x00000B08, Type = 0xFFFFFFF2)  returns 0x00000005 (0000ms, 4495ms total)
T08FC 5494:338 JLINK_SetBPEx(Addr = 0x00000B6E, Type = 0xFFFFFFF2)  returns 0x00000006 (0000ms, 4495ms total)
T08FC 5494:338 JLINK_SetBPEx(Addr = 0x00000AFE, Type = 0xFFFFFFF2)  returns 0x00000007 (0000ms, 4495ms total)
T08FC 5494:338 JLINK_Go() -- CPU_ReadMem(4 bytes @ 0xE0001000) -- CPU_WriteMem(4 bytes @ 0xE0002008) -- CPU_WriteMem(4 bytes @ 0xE000200C) -- CPU_WriteMem(4 bytes @ 0xE0002010) -- CPU_WriteMem(4 bytes @ 0xE0001004) (0002ms, 4497ms total)
T08FC 5494:441 JLINK_IsHalted()  returns TRUE (0001ms, 4498ms total)
T08FC 5494:442 JLINK_Halt()  returns 0x00 (0001ms, 4498ms total)
T08FC 5494:443 JLINK_IsHalted()  returns TRUE (0000ms, 4498ms total)
T08FC 5494:443 JLINK_IsHalted()  returns TRUE (0000ms, 4498ms total)
T08FC 5494:443 JLINK_IsHalted()  returns TRUE (0000ms, 4498ms total)
T08FC 5494:443 JLINK_ReadReg(R15 (PC))  returns 0x00000B08 (0000ms, 4498ms total)
T08FC 5494:443 JLINK_ReadReg(XPSR)  returns 0x01000000 (0000ms, 4498ms total)
T08FC 5494:443 JLINK_ClrBPEx(BPHandle = 0x00000005)  returns 0x00 (0000ms, 4498ms total)
T08FC 5494:443 JLINK_ClrBPEx(BPHandle = 0x00000006)  returns 0x00 (0000ms, 4498ms total)
T08FC 5494:443 JLINK_ClrBPEx(BPHandle = 0x00000007)  returns 0x00 (0000ms, 4498ms total)
T08FC 5494:443 JLINK_ReadMemU32(0xE000ED30, 0x0001 Items, ...) -- CPU_ReadMem(4 bytes @ 0xE000ED30) - Data: 02 00 00 00  returns 1 (0000ms, 4498ms total)
T08FC 5494:443 JLINK_ReadMemU32(0xE0001028, 0x0001 Items, ...) -- CPU_ReadMem(4 bytes @ 0xE0001028) - Data: 00 00 00 00  returns 1 (0001ms, 4499ms total)
T08FC 5494:444 JLINK_ReadMemU32(0xE0001038, 0x0001 Items, ...) -- CPU_ReadMem(4 bytes @ 0xE0001038) - Data: 00 02 00 00  returns 1 (0000ms, 4499ms total)
T08FC 5494:444 JLINK_ReadMemU32(0xE0001048, 0x0001 Items, ...) -- CPU_ReadMem(4 bytes @ 0xE0001048) - Data: 00 00 00 00  returns 1 (0000ms, 4499ms total)
T08FC 5494:444 JLINK_ReadMemU32(0xE0001058, 0x0001 Items, ...) -- CPU_ReadMem(4 bytes @ 0xE0001058) - Data: 00 00 00 00  returns 1 (0001ms, 4500ms total)
T08FC 5494:445 JLINK_ReadReg(R0)  returns 0x0000000C (0000ms, 4500ms total)
T08FC 5494:445 JLINK_ReadReg(R1)  returns 0x0000001E (0000ms, 4500ms total)
T08FC 5494:445 JLINK_ReadReg(R2)  returns 0x00000249 (0000ms, 4500ms total)
T08FC 5494:445 JLINK_ReadReg(R3)  returns 0x055D4A80 (0000ms, 4500ms total)
T08FC 5494:445 JLINK_ReadReg(R4)  returns 0xA5A5A5A5 (0000ms, 4500ms total)
T08FC 5494:445 JLINK_ReadReg(R5)  returns 0xA5A5A5A5 (0000ms, 4500ms total)
T08FC 5494:445 JLINK_ReadReg(R6)  returns 0xA5A5A5A5 (0000ms, 4500ms total)
T08FC 5494:445 JLINK_ReadReg(R7)  returns 0xA5A5A5A5 (0000ms, 4500ms total)
T08FC 5494:445 JLINK_ReadReg(R8)  returns 0xA5A5A5A5 (0000ms, 4500ms total)
T08FC 5494:445 JLINK_ReadReg(R9)  returns 0xA5A5A5A5 (0000ms, 4500ms total)
T08FC 5494:445 JLINK_ReadReg(R10)  returns 0xA5A5A5A5 (0000ms, 4500ms total)
T08FC 5494:445 JLINK_ReadReg(R11)  returns 0xA5A5A5A5 (0000ms, 4500ms total)
T08FC 5494:445 JLINK_ReadReg(R12)  returns 0xA5A5A5A5 (0000ms, 4500ms total)
T08FC 5494:445 JLINK_ReadReg(R13 (SP))  returns 0x1FFF6A90 (0000ms, 4500ms total)
T08FC 5494:445 JLINK_ReadReg(R14)  returns 0x00001D3F (0000ms, 4500ms total)
T08FC 5494:445 JLINK_ReadReg(R15 (PC))  returns 0x00000B08 (0000ms, 4500ms total)
T08FC 5494:445 JLINK_ReadReg(XPSR)  returns 0x01000000 (0000ms, 4500ms total)
T08FC 5494:445 JLINK_ReadReg(MSP)  returns 0x1FFF7B08 (0000ms, 4500ms total)
T08FC 5494:445 JLINK_ReadReg(PSP)  returns 0x1FFF6A90 (0001ms, 4501ms total)
T08FC 5494:446 JLINK_ReadReg(CFBP)  returns 0x02000000 (0000ms, 4501ms total)
T08FC 5494:446 JLINK_ReadReg(FPSCR)  returns 0x00000000 (0002ms, 4503ms total)
T08FC 5494:448 JLINK_ReadReg(FPS0)  returns 0x00000000 (0000ms, 4503ms total)
T08FC 5494:448 JLINK_ReadReg(FPS1)  returns 0x00000000 (0000ms, 4503ms total)
T08FC 5494:448 JLINK_ReadReg(FPS2)  returns 0x00000000 (0000ms, 4503ms total)
T08FC 5494:448 JLINK_ReadReg(FPS3)  returns 0x00000000 (0000ms, 4503ms total)
T08FC 5494:448 JLINK_ReadReg(FPS4)  returns 0x00000000 (0000ms, 4503ms total)
T08FC 5494:448 JLINK_ReadReg(FPS5)  returns 0x00000000 (0001ms, 4504ms total)
T08FC 5494:449 JLINK_ReadReg(FPS6)  returns 0x00000000 (0000ms, 4504ms total)
T08FC 5494:449 JLINK_ReadReg(FPS7)  returns 0x00000000 (0000ms, 4504ms total)
T08FC 5494:449 JLINK_ReadReg(FPS8)  returns 0x00000000 (0000ms, 4504ms total)
T08FC 5494:449 JLINK_ReadReg(FPS9)  returns 0x00000000 (0000ms, 4504ms total)
T08FC 5494:449 JLINK_ReadReg(FPS10)  returns 0x00000000 (0000ms, 4504ms total)
T08FC 5494:449 JLINK_ReadReg(FPS11)  returns 0x00000000 (0000ms, 4504ms total)
T08FC 5494:449 JLINK_ReadReg(FPS12)  returns 0x00000000 (0000ms, 4504ms total)
T08FC 5494:449 JLINK_ReadReg(FPS13)  returns 0x00000000 (0000ms, 4504ms total)
T08FC 5494:449 JLINK_ReadReg(FPS14)  returns 0x00000000 (0000ms, 4504ms total)
T08FC 5494:449 JLINK_ReadReg(FPS15)  returns 0x00000000 (0000ms, 4504ms total)
T08FC 5494:449 JLINK_ReadReg(FPS16)  returns 0x00000000 (0000ms, 4504ms total)
T08FC 5494:449 JLINK_ReadReg(FPS17)  returns 0x00000000 (0000ms, 4504ms total)
T08FC 5494:449 JLINK_ReadReg(FPS18)  returns 0x00000000 (0000ms, 4504ms total)
T08FC 5494:449 JLINK_ReadReg(FPS19)  returns 0x00000000 (0000ms, 4504ms total)
T08FC 5494:449 JLINK_ReadReg(FPS20)  returns 0x00000000 (0000ms, 4504ms total)
T08FC 5494:449 JLINK_ReadReg(FPS21)  returns 0x00000000 (0000ms, 4504ms total)
T08FC 5494:449 JLINK_ReadReg(FPS22)  returns 0x00000000 (0000ms, 4504ms total)
T08FC 5494:449 JLINK_ReadReg(FPS23)  returns 0x00000000 (0000ms, 4504ms total)
T08FC 5494:449 JLINK_ReadReg(FPS24)  returns 0x00000000 (0000ms, 4504ms total)
T08FC 5494:449 JLINK_ReadReg(FPS25)  returns 0x00000000 (0000ms, 4504ms total)
T08FC 5494:449 JLINK_ReadReg(FPS26)  returns 0x00000000 (0000ms, 4504ms total)
T08FC 5494:449 JLINK_ReadReg(FPS27)  returns 0x00000000 (0000ms, 4504ms total)
T08FC 5494:449 JLINK_ReadReg(FPS28)  returns 0x00000000 (0000ms, 4504ms total)
T08FC 5494:449 JLINK_ReadReg(FPS29)  returns 0x00000000 (0000ms, 4504ms total)
T08FC 5494:449 JLINK_ReadReg(FPS30)  returns 0x00000000 (0000ms, 4504ms total)
T08FC 5494:449 JLINK_ReadReg(FPS31)  returns 0x00000000 (0000ms, 4504ms total)
T4F54 5494:487 JLINK_ReadMemEx(0x1FFF6AAC, 0x0004 Bytes, ..., Flags = 0x02000000) -- CPU_ReadMem(64 bytes @ 0x1FFF6A80) -- Updating C cache (64 bytes @ 0x1FFF6A80) -- Read from C cache (4 bytes @ 0x1FFF6AAC) - Data: 79 09 00 00  returns 0x04 (0001ms, 4505ms total)
T4F54 5494:488 JLINK_ReadMemEx(0x1FFF6AA0, 0x0004 Bytes, ..., Flags = 0x02000000) -- Read from C cache (4 bytes @ 0x1FFF6AA0) - Data: A5 A5 A5 A5  returns 0x04 (0000ms, 4505ms total)
T4F54 5494:488 JLINK_ReadMemEx(0x1FFF6AA4, 0x0004 Bytes, ..., Flags = 0x02000000) -- Read from C cache (4 bytes @ 0x1FFF6AA4) - Data: A5 A5 A5 A5  returns 0x04 (0000ms, 4505ms total)
T4F54 5494:488 JLINK_ReadMemEx(0x1FFF6AA8, 0x0004 Bytes, ..., Flags = 0x02000000) -- Read from C cache (4 bytes @ 0x1FFF6AA8) - Data: A5 A5 A5 A5  returns 0x04 (0000ms, 4505ms total)
T4F54 5494:488 JLINK_ReadMemEx(0x1FFF6AAC, 0x0004 Bytes, ..., Flags = 0x02000000) -- Read from C cache (4 bytes @ 0x1FFF6AAC) - Data: 79 09 00 00  returns 0x04 (0000ms, 4505ms total)
T4F54 5494:488 JLINK_ReadMemEx(0x1FFF6A9C, 0x0004 Bytes, ..., Flags = 0x02000000) -- Read from C cache (4 bytes @ 0x1FFF6A9C) - Data: A5 A5 A5 A5  returns 0x04 (0000ms, 4505ms total)
T4F54 5494:490 JLINK_ReadMemEx(0x1FFF0034, 0x0001 Bytes, ..., Flags = 0x02000000) -- CPU_ReadMem(64 bytes @ 0x1FFF0000) -- Updating C cache (64 bytes @ 0x1FFF0000) -- Read from C cache (1 bytes @ 0x1FFF0034) - Data: 01  returns 0x01 (0001ms, 4506ms total)
T4F54 5494:495 JLINK_ReadMemEx(0x00000B08, 0x003C Bytes, ..., Flags = 0x02000000) -- CPU_ReadMem(128 bytes @ 0x00000B00) -- Updating C cache (128 bytes @ 0x00000B00) -- Read from C cache (60 bytes @ 0x00000B08) - Data: 03 20 01 F0 D7 F9 4F F4 7A 70 01 F0 A3 F8 00 20 ...  returns 0x3C (0001ms, 4507ms total)
T4F54 5494:496 JLINK_ReadMemEx(0x00000B08, 0x0002 Bytes, ..., Flags = 0x02000000) -- Read from C cache (2 bytes @ 0x00000B08) - Data: 03 20  returns 0x02 (0000ms, 4507ms total)
T4F54 5494:496 JLINK_ReadMemEx(0x00000B0A, 0x0002 Bytes, ..., Flags = 0x02000000) -- Read from C cache (2 bytes @ 0x00000B0A) - Data: 01 F0  returns 0x02 (0000ms, 4507ms total)
T08FC 5498:054 JLINK_ReadMemEx(0x00000B08, 0x0002 Bytes, ..., Flags = 0x02000000) -- Read from C cache (2 bytes @ 0x00000B08) - Data: 03 20  returns 0x02 (0000ms, 4507ms total)
T08FC 5498:054 JLINK_Step() -- Read from C cache (2 bytes @ 0x00000B08) -- CPU_ReadMem(4 bytes @ 0xE0001004) -- Simulated  returns 0x00 (0000ms, 4507ms total)
T08FC 5498:054 JLINK_ReadReg(R15 (PC))  returns 0x00000B0A (0000ms, 4507ms total)
T08FC 5498:054 JLINK_ReadReg(XPSR)  returns 0x01000000 (0000ms, 4507ms total)
T08FC 5498:054 JLINK_ReadMemEx(0x00000B0A, 0x0002 Bytes, ..., Flags = 0x02000000) -- Read from C cache (2 bytes @ 0x00000B0A) - Data: 01 F0  returns 0x02 (0000ms, 4507ms total)
T08FC 5498:055 JLINK_ReadMemEx(0x00000B0C, 0x003C Bytes, ..., Flags = 0x02000000) -- Read from C cache (60 bytes @ 0x00000B0C) - Data: D7 F9 4F F4 7A 70 01 F0 A3 F8 00 20 3F 49 08 70 ...  returns 0x3C (0000ms, 4508ms total)
T08FC 5498:055 JLINK_ReadMemEx(0x00000B0C, 0x0002 Bytes, ..., Flags = 0x02000000) -- Read from C cache (2 bytes @ 0x00000B0C) - Data: D7 F9  returns 0x02 (0000ms, 4508ms total)
T08FC 5498:055 JLINK_SetBPEx(Addr = 0x00000B0E, Type = 0xFFFFFFF2)  returns 0x00000008 (0000ms, 4508ms total)
T08FC 5498:055 JLINK_SetBPEx(Addr = 0x00000B6E, Type = 0xFFFFFFF2)  returns 0x00000009 (0000ms, 4508ms total)
T08FC 5498:055 JLINK_SetBPEx(Addr = 0x00000AFE, Type = 0xFFFFFFF2)  returns 0x0000000A (0000ms, 4508ms total)
T08FC 5498:055 JLINK_Go() -- CPU_ReadMem(4 bytes @ 0xE0001000) -- CPU_WriteMem(4 bytes @ 0xE0002008) -- CPU_WriteMem(4 bytes @ 0xE0001004) (0001ms, 4509ms total)
T08FC 5498:157 JLINK_IsHalted()  returns TRUE (0002ms, 4511ms total)
T08FC 5498:159 JLINK_Halt()  returns 0x00 (0000ms, 4509ms total)
T08FC 5498:159 JLINK_IsHalted()  returns TRUE (0000ms, 4509ms total)
T08FC 5498:159 JLINK_IsHalted()  returns TRUE (0000ms, 4509ms total)
T08FC 5498:159 JLINK_IsHalted()  returns TRUE (0000ms, 4509ms total)
T08FC 5498:159 JLINK_ReadReg(R15 (PC))  returns 0x00000B0E (0000ms, 4509ms total)
T08FC 5498:159 JLINK_ReadReg(XPSR)  returns 0x01000000 (0000ms, 4509ms total)
T08FC 5498:159 JLINK_ClrBPEx(BPHandle = 0x00000008)  returns 0x00 (0000ms, 4509ms total)
T08FC 5498:159 JLINK_ClrBPEx(BPHandle = 0x00000009)  returns 0x00 (0000ms, 4509ms total)
T08FC 5498:159 JLINK_ClrBPEx(BPHandle = 0x0000000A)  returns 0x00 (0000ms, 4509ms total)
T08FC 5498:159 JLINK_ReadMemU32(0xE000ED30, 0x0001 Items, ...) -- CPU_ReadMem(4 bytes @ 0xE000ED30) - Data: 02 00 00 00  returns 1 (0001ms, 4510ms total)
T08FC 5498:160 JLINK_ReadMemU32(0xE0001028, 0x0001 Items, ...) -- CPU_ReadMem(4 bytes @ 0xE0001028) - Data: 00 00 00 00  returns 1 (0000ms, 4510ms total)
T08FC 5498:160 JLINK_ReadMemU32(0xE0001038, 0x0001 Items, ...) -- CPU_ReadMem(4 bytes @ 0xE0001038) - Data: 00 02 00 00  returns 1 (0001ms, 4511ms total)
T08FC 5498:161 JLINK_ReadMemU32(0xE0001048, 0x0001 Items, ...) -- CPU_ReadMem(4 bytes @ 0xE0001048) - Data: 00 00 00 00  returns 1 (0000ms, 4511ms total)
T08FC 5498:161 JLINK_ReadMemU32(0xE0001058, 0x0001 Items, ...) -- CPU_ReadMem(4 bytes @ 0xE0001058) - Data: 00 00 00 00  returns 1 (0001ms, 4512ms total)
T08FC 5498:162 JLINK_ReadReg(R0)  returns 0x00000025 (0000ms, 4512ms total)
T08FC 5498:162 JLINK_ReadReg(R1)  returns 0x00000020 (0000ms, 4512ms total)
T08FC 5498:162 JLINK_ReadReg(R2)  returns 0xE000E004 (0000ms, 4512ms total)
T08FC 5498:162 JLINK_ReadReg(R3)  returns 0x055D4A80 (0000ms, 4512ms total)
T08FC 5498:162 JLINK_ReadReg(R4)  returns 0xA5A5A5A5 (0000ms, 4512ms total)
T08FC 5498:162 JLINK_ReadReg(R5)  returns 0xA5A5A5A5 (0000ms, 4512ms total)
T08FC 5498:162 JLINK_ReadReg(R6)  returns 0xA5A5A5A5 (0000ms, 4512ms total)
T08FC 5498:162 JLINK_ReadReg(R7)  returns 0xA5A5A5A5 (0000ms, 4512ms total)
T08FC 5498:162 JLINK_ReadReg(R8)  returns 0xA5A5A5A5 (0000ms, 4512ms total)
T08FC 5498:162 JLINK_ReadReg(R9)  returns 0xA5A5A5A5 (0000ms, 4512ms total)
T08FC 5498:162 JLINK_ReadReg(R10)  returns 0xA5A5A5A5 (0000ms, 4512ms total)
T08FC 5498:162 JLINK_ReadReg(R11)  returns 0xA5A5A5A5 (0000ms, 4512ms total)
T08FC 5498:162 JLINK_ReadReg(R12)  returns 0xA5A5A5A5 (0000ms, 4512ms total)
T08FC 5498:162 JLINK_ReadReg(R13 (SP))  returns 0x1FFF6A90 (0000ms, 4512ms total)
T08FC 5498:162 JLINK_ReadReg(R14)  returns 0x00001EE5 (0000ms, 4512ms total)
T08FC 5498:162 JLINK_ReadReg(R15 (PC))  returns 0x00000B0E (0000ms, 4512ms total)
T08FC 5498:162 JLINK_ReadReg(XPSR)  returns 0x01000000 (0000ms, 4512ms total)
T08FC 5498:162 JLINK_ReadReg(MSP)  returns 0x1FFF7B08 (0000ms, 4512ms total)
T08FC 5498:162 JLINK_ReadReg(PSP)  returns 0x1FFF6A90 (0000ms, 4512ms total)
